<<<<<<< HEAD
T3888 000:001.384   SEGGER J-Link V9.42 Log File
T3888 000:001.601   DLL Compiled: May  6 2026 12:25:27
T3888 000:001.619   Logging started @ 2026-09-05 11:18
T3888 000:001.629   Process: C:\Users\hieuk\.eclipse\com.renesas.platform_1810250131\DebugComp\RA\e2-server-gdb.exe
T3888 000:001.680 - 1.639ms 
T3888 000:001.697 JLINK_GetDLLVersion()
T3888 000:001.704 - 0.008ms returns 94200
T3888 000:004.692 JLINK_OpenEx(...)
T3888 000:011.817   Firmware: J-Link V9 compiled May  7 2021 16:26:12
T3888 000:012.868   Firmware: J-Link V9 compiled May  7 2021 16:26:12
T3888 000:013.028   Decompressing FW timestamp took 130 us
T3888 000:022.816   Hardware: V9.40
T3888 000:022.846   S/N: 69403061
T3888 000:022.855   OEM: SEGGER
T3888 000:022.870   Feature(s): RDI, GDB, FlashDL, FlashBP, JFlash
T3888 000:023.830   Bootloader: (FW returned invalid version)
T3888 000:025.235   TELNET listener socket opened on port 19021
T3888 000:025.417   WEBSRV WEBSRV_Init(): Starting webserver thread(s)
T3888 000:025.621   WEBSRV Webserver running on local port 19080
T3888 000:025.742   Looking for J-Link GUI Server exe at: C:\Users\hieuk\.eclipse\com.renesas.platform_1810250131\DebugComp\RA\ARM\Segger_v9.42.0\JLinkGUIServer.exe
T3888 000:025.845   Looking for J-Link GUI Server exe at: C:\Program Files\SEGGER\JLink_V924a\JLinkGUIServer.exe
T3888 000:025.883   Forking J-Link GUI Server: C:\Program Files\SEGGER\JLink_V924a\JLinkGUIServer.exe
T3888 000:057.235   J-Link GUI Server info: "J-Link GUI server V9.24a "
T3888 000:062.343 - 57.648ms returns "O.K."
T3888 000:062.507 JLINK_ExecCommand("ProjectFile=D:\workspace\spi_ek_ra6m5_ep\e2studio/spi_ek_ra6m5_ep Debug.jlink", ...). 
T3888 000:089.091 - 26.586ms returns 0x00
T3888 000:089.734 JLINK_ExecCommand("device=R7FA6M5BH", ...). 
T3888 000:090.937   Flash bank @ 0x0100A100: SFL: Parsing sectorization info from ELF file
T3888 000:090.951     FlashDevice.SectorInfo[0]: .SectorSize = 0x00000010, .SectorStartAddr = 0x00000000
T3888 000:090.959   FlashBank @0x0100A100: Sectorization info from SFL ELF file ignored because sectorization override from DLL / XML file is active.
T3888 000:090.986   Flash bank @ 0x00000000: SFL: Parsing sectorization info from ELF file
T3888 000:090.994     FlashDevice.SectorInfo[0]: .SectorSize = 0x00002000, .SectorStartAddr = 0x00000000
T3888 000:091.001   FlashBank @0x00000000: Sectorization info from SFL ELF file ignored because sectorization override from DLL / XML file is active.
T3888 000:091.583   Flash bank @ 0x08000000: SFL: Parsing sectorization info from ELF file
T3888 000:091.593     FlashDevice.SectorInfo[0]: .SectorSize = 0x00000040, .SectorStartAddr = 0x00000000
T3888 000:091.601   FlashBank @0x08000000: Sectorization info from SFL ELF file ignored because sectorization override from DLL / XML file is active.
T3888 000:091.664   Flash bank @ 0x60000000: SFL: Parsing sectorization info from ELF file
T3888 000:091.672     FlashDevice.SectorInfo[0]: .SectorSize = 0x00010000, .SectorStartAddr = 0x00000000
T3888 000:096.882   Device "R7FA6M5BH" selected.
T3888 000:097.418 - 7.682ms returns 0x00
T3888 000:097.434 JLINK_TIF_GetAvailable(...)
T3888 000:097.709 - 0.275ms 
T3888 000:097.728 JLINK_TIF_Select(JLINKARM_TIF_SWD)
T3888 000:098.509 - 0.784ms returns 0x00
T3888 000:098.527 JLINK_SetSpeed(4000)
T3888 000:098.668 - 0.141ms 
T3888 000:098.707 JLINK_ReadMem(0xE000EDF0, 0x4 Bytes, ...)
T3888 000:098.874   ConfigTargetSettings() start
T3888 000:098.889    J-Link Script File: Executing ConfigTargetSettings()
T3888 000:098.901   Configuring FlashDLNoRMWThreshold=0x200 in order to make sure that option bytes programming is done via read-modify-write
T3888 000:143.014   ConfigTargetSettings() end - Took 44.1ms
T3888 000:143.036   InitTarget() start
T3888 000:143.086    J-Link Script File: Executing InitTarget()
T3888 000:143.101   SWD selected. Executing JTAG -> SWD switching sequence.
T3888 000:145.830   DAP initialized successfully.
T3888 000:145.843   Determining TrustZone configuration...
T3888 000:147.026     Secure Debug: Enabled (SSD)
T3888 000:147.096   Determining currently configured transfer type by reading the AHB-AP CSW register.
T3888 000:147.906     --> Correct transfer type configured. Done.
T3888 000:147.917   InitTarget() end - Took 4.83ms
T3888 000:148.651   Found SW-DP with ID 0x6BA02477
T3888 000:151.515   DPIDR: 0x6BA02477
T3888 000:151.540   CoreSight SoC-400 or earlier
T3888 000:151.549   Scanning AP map to find all available APs
T3888 000:152.408   AP[2]: Stopped AP scan as end of AP map has been reached
T3888 000:152.425   AP[0]: AHB-AP (IDR: 0x84770001, ADDR: 0x00000000)
T3888 000:152.433   AP[1]: APB-AP (IDR: 0x54770002, ADDR: 0x01000000)
T3888 000:152.443   Iterating through AP map to find AHB-AP to use
T3888 000:153.563   AP[0]: Core found
T3888 000:153.578   AP[0]: AHB-AP ROM base: 0xE00FE000
T3888 000:154.173   CPUID register: 0x410FD214. Implementer code: 0x41 (ARM)
T3888 000:154.186   Feature set: Mainline
T3888 000:154.826   Cache: No cache
T3888 000:154.840   Found Cortex-M33 r0p4, Little endian.
T3888 000:155.195   -- Max. mem block: 0x00010CA8
T3888 000:155.838   
  ***** Warning: 
T3888 000:155.848   Cortex-M (ARMv8-M and later): The connected J-Link (S/N 69403061) uses an old firmware module that does not handle I/D-cache correctly. Proper debugging functionality cannot be guaranteed if cache is enabled
T3888 000:155.864   CPU_ReadMem(4 bytes @ 0xE000EDF0)
T3888 000:156.225   CPU_ReadMem(4 bytes @ 0xE0002000)
T3888 000:156.640   FPUnit: 8 code (BP) slots and 0 literal slots
T3888 000:156.660   CPU_ReadMem(4 bytes @ 0xE000EDFC)
T3888 000:156.987   CPU_ReadMem(4 bytes @ 0xE0001000)
T3888 000:157.365   CPU_ReadMem(4 bytes @ 0xE0001000)
T3888 000:157.700   CPU_ReadMem(4 bytes @ 0xE0001028)
T3888 000:158.069   CPU_ReadMem(4 bytes @ 0xE0001038)
T3888 000:158.533   CPU_ReadMem(4 bytes @ 0xE0001048)
T3888 000:158.864   CPU_ReadMem(4 bytes @ 0xE0001058)
T3888 000:159.226   CPU_WriteMem(4 bytes @ 0xE0001000)
T3888 000:159.655   CPU_ReadMem(4 bytes @ 0xE000ED88)
T3888 000:160.028   CPU_WriteMem(4 bytes @ 0xE000ED88)
T3888 000:160.454   CPU_ReadMem(4 bytes @ 0xE000ED88)
T3888 000:160.846   CPU_WriteMem(4 bytes @ 0xE000ED88)
T3888 000:161.201   CPU_ReadMem(4 bytes @ 0xE000EFB8)
T3888 000:161.561   Security extension: implemented
T3888 000:161.570   Secure debug: enabled
T3888 000:161.577   CoreSight components:
T3888 000:161.585   ROMTbl[0] @ E00FE000
T3888 000:161.594   CPU_ReadMem(64 bytes @ 0xE00FE000)
T3888 000:162.340   CPU_ReadMem(32 bytes @ 0xE0044FE0)
T3888 000:162.928   CPU_ReadMem(4 bytes @ 0xE0044FBC)
T3888 000:163.439   CPU_ReadMem(4 bytes @ 0xE0044FCC)
T3888 000:163.889   [0][0]: E0044000 CID B105900D PID 005BB906 DEVARCH 00000000 DEVTYPE 14 CTI (?)
T3888 000:163.904   CPU_ReadMem(32 bytes @ 0xE0047FE0)
T3888 000:164.460   CPU_ReadMem(4 bytes @ 0xE0047FBC)
T3888 000:164.853   CPU_ReadMem(4 bytes @ 0xE0047FCC)
T3888 000:165.322   [0][1]: E0047000 CID B105900D PID 003BB908 DEVARCH 00000000 DEVTYPE 12 CSTF
T3888 000:165.354   CPU_ReadMem(32 bytes @ 0xE0048FE0)
T3888 000:166.087   CPU_ReadMem(4 bytes @ 0xE0048FBC)
T3888 000:166.502   CPU_ReadMem(4 bytes @ 0xE0048FCC)
T3888 000:166.898   [0][2]: E0048000 CID B105900D PID 001BB961 DEVARCH 00000000 DEVTYPE 21 TMC
T3888 000:166.909   CPU_ReadMem(32 bytes @ 0xE0049FE0)
T3888 000:167.531   [0][3]: E0049000 CID B105F00D PID 001BB101 TSG
T3888 000:167.540   CPU_ReadMem(32 bytes @ 0xE0040FE0)
T3888 000:168.070   CPU_ReadMem(4 bytes @ 0xE0040FBC)
T3888 000:168.435   CPU_ReadMem(4 bytes @ 0xE0040FCC)
T3888 000:168.902   [0][4]: E0040000 CID B105900D PID 000BBD21 DEVARCH 00000000 DEVTYPE 11 TPIU
T3888 000:168.912   CPU_ReadMem(32 bytes @ 0xE00FFFE0)
T3888 000:169.490   [0][5]: E00FF000 CID B105100D PID 000BB4C9 ROM Table
T3888 000:169.499   ROMTbl[1] @ E00FF000
T3888 000:169.507   CPU_ReadMem(64 bytes @ 0xE00FF000)
T3888 000:170.353   CPU_ReadMem(32 bytes @ 0xE000EFE0)
T3888 000:170.952   CPU_ReadMem(4 bytes @ 0xE000EFBC)
T3888 000:171.309   CPU_ReadMem(4 bytes @ 0xE000EFCC)
T3888 000:171.778   [1][0]: E000E000 CID B105900D PID 000BBD21 DEVARCH 47702A04 DEVTYPE 00 Cortex-M33
T3888 000:171.797   CPU_ReadMem(32 bytes @ 0xE0001FE0)
T3888 000:172.478   CPU_ReadMem(4 bytes @ 0xE0001FBC)
T3888 000:172.877   CPU_ReadMem(4 bytes @ 0xE0001FCC)
T3888 000:173.251   [1][1]: E0001000 CID B105900D PID 000BBD21 DEVARCH 47701A02 DEVTYPE 00 DWT
T3888 000:173.260   CPU_ReadMem(32 bytes @ 0xE0002FE0)
T3888 000:173.893   CPU_ReadMem(4 bytes @ 0xE0002FBC)
T3888 000:174.251   CPU_ReadMem(4 bytes @ 0xE0002FCC)
T3888 000:174.621   [1][2]: E0002000 CID B105900D PID 000BBD21 DEVARCH 47701A03 DEVTYPE 00 FPB
T3888 000:174.638   CPU_ReadMem(32 bytes @ 0xE0000FE0)
T3888 000:175.210   CPU_ReadMem(4 bytes @ 0xE0000FBC)
T3888 000:175.740   CPU_ReadMem(4 bytes @ 0xE0000FCC)
T3888 000:176.099   [1][3]: E0000000 CID B105900D PID 000BBD21 DEVARCH 47701A01 DEVTYPE 43 ITM
T3888 000:176.109   CPU_ReadMem(32 bytes @ 0xE0041FE0)
T3888 000:176.661   CPU_ReadMem(4 bytes @ 0xE0041FBC)
T3888 000:177.005   CPU_ReadMem(4 bytes @ 0xE0041FCC)
T3888 000:177.358   [1][5]: E0041000 CID B105900D PID 002BBD21 DEVARCH 47724A13 DEVTYPE 13 ETM
T3888 000:177.374   CPU_ReadMem(32 bytes @ 0xE0042FE0)
T3888 000:177.965   CPU_ReadMem(4 bytes @ 0xE0042FBC)
T3888 000:178.379   CPU_ReadMem(4 bytes @ 0xE0042FCC)
T3888 000:178.827   [1][6]: E0042000 CID B105900D PID 000BBD21 DEVARCH 47701A14 DEVTYPE 14 CSS600-CTI
T3888 000:178.884   CPU_ReadMem(4 bytes @ 0xE000EDF0)
T3888 000:179.228   Data:  03 00 13 00
T3888 000:179.239   Debug reg: DHCSR
T3888 000:179.247 - 80.540ms returns 0
T3888 000:179.307 JLINK_ReadMem(0x400E002C, 0x4 Bytes, ...)
T3888 000:179.317   CPU_ReadMem(4 bytes @ 0x400E002C)
T3888 000:179.655   Data:  01 00 00 00
T3888 000:179.665 - 0.357ms returns 0
T3888 000:179.689 JLINK_ReadMem(0xE000EDF0, 0x4 Bytes, ...)
T3888 000:179.696   CPU_ReadMem(4 bytes @ 0xE000EDF0)
T3888 000:180.119   Data:  03 00 13 00
T3888 000:180.128   Debug reg: DHCSR
T3888 000:180.136 - 0.447ms returns 0
T3888 000:180.179 JLINK_ReadMem(0xE000EDF0, 0x4 Bytes, ...)
T3888 000:180.187   CPU_ReadMem(4 bytes @ 0xE000EDF0)
T3888 000:180.487   Data:  03 00 13 00
T3888 000:180.496   Debug reg: DHCSR
T3888 000:180.504 - 0.325ms returns 0
T3888 000:180.512 JLINK_ReadMem(0x400E001C, 0x4 Bytes, ...)
T3888 000:180.519   CPU_ReadMem(4 bytes @ 0x400E001C)
T3888 000:180.875   Data:  00 FC FF 00
T3888 000:180.884 - 0.372ms returns 0
T3888 000:180.895 JLINK_ReadMem(0xE000EDF0, 0x4 Bytes, ...)
T3888 000:180.901   CPU_ReadMem(4 bytes @ 0xE000EDF0)
T3888 000:181.236   Data:  03 00 13 00
T3888 000:181.245   Debug reg: DHCSR
T3888 000:181.253 - 0.358ms returns 0
T3888 000:181.261 JLINK_ReadMem(0x400E0018, 0x4 Bytes, ...)
T3888 000:181.267   CPU_ReadMem(4 bytes @ 0x400E0018)
T3888 000:181.621   Data:  00 80 FF 00
T3888 000:181.630 - 0.370ms returns 0
T3888 000:181.641 JLINK_ReadMem(0xE000EDF0, 0x4 Bytes, ...)
T3888 000:181.648   CPU_ReadMem(4 bytes @ 0xE000EDF0)
T3888 000:182.006   Data:  03 00 13 00
T3888 000:182.027   Debug reg: DHCSR
T3888 000:182.037 - 0.396ms returns 0
T3888 000:182.051 JLINK_ReadMem(0x400E0020, 0x4 Bytes, ...)
T3888 000:182.064   CPU_ReadMem(4 bytes @ 0x400E0020)
T3888 000:182.877   Data:  00 FC 00 00
T3888 000:182.928 - 0.877ms returns 0
T3888 000:182.971 JLINK_ReadMem(0xE000EDF0, 0x4 Bytes, ...)
T3888 000:183.079   CPU_ReadMem(4 bytes @ 0xE000EDF0)
T3888 000:183.641   Data:  03 00 13 00
T3888 000:183.675   Debug reg: DHCSR
T3888 000:183.686 - 0.714ms returns 0
T3888 000:183.711 JLINK_ReadMem(0x400E0028, 0x4 Bytes, ...)
T3888 000:183.722   CPU_ReadMem(4 bytes @ 0x400E0028)
T3888 000:184.286   Data:  00 FC 1F 00
T3888 000:184.298 - 0.588ms returns 0
T3888 000:184.314 JLINK_ReadMem(0xE000EDF0, 0x4 Bytes, ...)
T3888 000:184.322   CPU_ReadMem(4 bytes @ 0xE000EDF0)
T3888 000:184.711   Data:  03 00 13 00
T3888 000:184.747   Debug reg: DHCSR
T3888 000:184.769 - 0.455ms returns 0
T3888 000:184.782 JLINK_ReadMem(0x400E0024, 0x4 Bytes, ...)
T3888 000:184.793   CPU_ReadMem(4 bytes @ 0x400E0024)
T3888 000:185.160   Data:  00 E0 1F 00
T3888 000:185.180 - 0.398ms returns 0
T3888 000:185.205 JLINK_ReadMem(0xE000EDF0, 0x4 Bytes, ...)
T3888 000:185.214   CPU_ReadMem(4 bytes @ 0xE000EDF0)
T3888 000:185.644   Data:  03 00 13 00
T3888 000:185.659   Debug reg: DHCSR
T3888 000:185.668 - 0.462ms returns 0
T3888 000:185.714 JLINK_ReadMem(0x400E002C, 0x4 Bytes, ...)
T3888 000:185.722   CPU_ReadMem(4 bytes @ 0x400E002C)
T3888 000:186.124   Data:  01 00 00 00
T3888 000:186.134 - 0.419ms returns 0
T3888 000:192.525 JLINK_Close()
T3888 000:213.345 - 20.818ms
T3888 000:213.365   
T3888 000:213.371   Closed
=======
T3CD0 000:001.029   SEGGER J-Link V9.42 Log File
T3CD0 000:001.212   DLL Compiled: May  6 2026 12:25:27
T3CD0 000:001.221   Logging started @ 2026-09-07 16:51
T3CD0 000:001.229   Process: C:\Users\hieuk\.eclipse\com.renesas.platform_1810250131\DebugComp\RA\e2-server-gdb.exe
T3CD0 000:001.242 - 1.236ms 
T3CD0 000:001.260 JLINK_GetDLLVersion()
T3CD0 000:001.270 - 0.010ms returns 94200
T3CD0 000:005.371 JLINK_OpenEx(...)
T3CD0 000:012.688   Firmware: J-Link V9 compiled May  7 2021 16:26:12
T3CD0 000:013.522   Firmware: J-Link V9 compiled May  7 2021 16:26:12
T3CD0 000:013.682   Decompressing FW timestamp took 132 us
T3CD0 000:023.435   Hardware: V9.40
T3CD0 000:023.520   S/N: 69403061
T3CD0 000:023.527   OEM: SEGGER
T3CD0 000:023.536   Feature(s): RDI, GDB, FlashDL, FlashBP, JFlash
T3CD0 000:025.031   Bootloader: (FW returned invalid version)
T3CD0 000:026.336   TELNET listener socket opened on port 19021
T3CD0 000:026.541   WEBSRV WEBSRV_Init(): Starting webserver thread(s)
T3CD0 000:026.719   WEBSRV Webserver running on local port 19080
T3CD0 000:026.836   Looking for J-Link GUI Server exe at: C:\Users\hieuk\.eclipse\com.renesas.platform_1810250131\DebugComp\RA\ARM\Segger_v9.42.0\JLinkGUIServer.exe
T3CD0 000:026.935   Looking for J-Link GUI Server exe at: C:\Program Files\SEGGER\JLink_V924a\JLinkGUIServer.exe
T3CD0 000:026.972   Forking J-Link GUI Server: C:\Program Files\SEGGER\JLink_V924a\JLinkGUIServer.exe
T3CD0 000:055.735   J-Link GUI Server info: "J-Link GUI server V9.24a "
T3CD0 000:062.824 - 57.444ms returns "O.K."
T3CD0 000:062.990 JLINK_ExecCommand("ProjectFile=D:\workspace\spi_ek_ra6m5_ep\e2studio/spi_ek_ra6m5_ep Debug.jlink", ...). 
T3CD0 000:124.250 - 61.261ms returns 0x00
T3CD0 000:127.166 JLINK_ExecCommand("device=R7FA6M5BH", ...). 
T3CD0 000:132.937   Flash bank @ 0x0100A100: SFL: Parsing sectorization info from ELF file
T3CD0 000:132.956     FlashDevice.SectorInfo[0]: .SectorSize = 0x00000010, .SectorStartAddr = 0x00000000
T3CD0 000:132.965   FlashBank @0x0100A100: Sectorization info from SFL ELF file ignored because sectorization override from DLL / XML file is active.
T3CD0 000:133.461   Flash bank @ 0x00000000: SFL: Parsing sectorization info from ELF file
T3CD0 000:133.476     FlashDevice.SectorInfo[0]: .SectorSize = 0x00002000, .SectorStartAddr = 0x00000000
T3CD0 000:133.485   FlashBank @0x00000000: Sectorization info from SFL ELF file ignored because sectorization override from DLL / XML file is active.
T3CD0 000:135.700   Flash bank @ 0x08000000: SFL: Parsing sectorization info from ELF file
T3CD0 000:135.732     FlashDevice.SectorInfo[0]: .SectorSize = 0x00000040, .SectorStartAddr = 0x00000000
T3CD0 000:135.744   FlashBank @0x08000000: Sectorization info from SFL ELF file ignored because sectorization override from DLL / XML file is active.
T3CD0 000:136.773   Flash bank @ 0x60000000: SFL: Parsing sectorization info from ELF file
T3CD0 000:136.797     FlashDevice.SectorInfo[0]: .SectorSize = 0x00010000, .SectorStartAddr = 0x00000000
T3CD0 000:143.275   Device "R7FA6M5BH" selected.
T3CD0 000:143.612 - 16.445ms returns 0x00
T3CD0 000:143.636 JLINK_TIF_GetAvailable(...)
T3CD0 000:143.922 - 0.284ms 
T3CD0 000:144.174 JLINK_TIF_Select(JLINKARM_TIF_SWD)
T3CD0 000:145.553 - 1.607ms returns 0x00
T3CD0 000:145.863 JLINK_SetSpeed(4000)
T3CD0 000:146.314 - 0.740ms 
T3CD0 000:146.777 JLINK_ReadMem(0xE000EDF0, 0x4 Bytes, ...)
T3CD0 000:147.272   ConfigTargetSettings() start
T3CD0 000:147.614    J-Link Script File: Executing ConfigTargetSettings()
T3CD0 000:148.306   Configuring FlashDLNoRMWThreshold=0x200 in order to make sure that option bytes programming is done via read-modify-write
T3CD0 000:185.372   ConfigTargetSettings() end - Took 38.0ms
T3CD0 000:185.396   InitTarget() start
T3CD0 000:185.408    J-Link Script File: Executing InitTarget()
T3CD0 000:185.419   SWD selected. Executing JTAG -> SWD switching sequence.
T3CD0 000:190.142   DAP initialized successfully.
T3CD0 000:190.170   Determining TrustZone configuration...
T3CD0 000:192.354     Secure Debug: Enabled (SSD)
T3CD0 000:192.442   Determining currently configured transfer type by reading the AHB-AP CSW register.
T3CD0 000:193.994     --> Correct transfer type configured. Done.
T3CD0 000:194.014   InitTarget() end - Took 8.60ms
T3CD0 000:195.351   Found SW-DP with ID 0x6BA02477
T3CD0 000:199.556   DPIDR: 0x6BA02477
T3CD0 000:199.569   CoreSight SoC-400 or earlier
T3CD0 000:199.578   Scanning AP map to find all available APs
T3CD0 000:200.607   AP[2]: Stopped AP scan as end of AP map has been reached
T3CD0 000:200.730   AP[0]: AHB-AP (IDR: 0x84770001, ADDR: 0x00000000)
T3CD0 000:200.740   AP[1]: APB-AP (IDR: 0x54770002, ADDR: 0x01000000)
T3CD0 000:200.889   Iterating through AP map to find AHB-AP to use
T3CD0 000:201.892   AP[0]: Core found
T3CD0 000:201.942   AP[0]: AHB-AP ROM base: 0xE00FE000
T3CD0 000:202.661   CPUID register: 0x410FD214. Implementer code: 0x41 (ARM)
T3CD0 000:202.685   Feature set: Mainline
T3CD0 000:203.160   Cache: No cache
T3CD0 000:203.347   Found Cortex-M33 r0p4, Little endian.
T3CD0 000:204.089   -- Max. mem block: 0x00010E60
T3CD0 000:204.719   
  ***** Warning: 
T3CD0 000:204.753   Cortex-M (ARMv8-M and later): The connected J-Link (S/N 69403061) uses an old firmware module that does not handle I/D-cache correctly. Proper debugging functionality cannot be guaranteed if cache is enabled
T3CD0 000:204.781   CPU_ReadMem(4 bytes @ 0xE000EDF0)
T3CD0 000:205.173   CPU_WriteMem(4 bytes @ 0xE000EDF0)
T3CD0 000:205.526   CPU_ReadMem(4 bytes @ 0xE0002000)
T3CD0 000:205.867   FPUnit: 8 code (BP) slots and 0 literal slots
T3CD0 000:205.878   CPU_ReadMem(4 bytes @ 0xE000EDFC)
T3CD0 000:206.277   CPU_WriteMem(4 bytes @ 0xE000EDFC)
T3CD0 000:206.652   CPU_ReadMem(4 bytes @ 0xE0001000)
T3CD0 000:207.050   CPU_ReadMem(4 bytes @ 0xE0001000)
T3CD0 000:207.389   CPU_ReadMem(4 bytes @ 0xE0001028)
T3CD0 000:207.779   CPU_ReadMem(4 bytes @ 0xE0001038)
T3CD0 000:208.120   CPU_ReadMem(4 bytes @ 0xE0001048)
T3CD0 000:208.568   CPU_ReadMem(4 bytes @ 0xE0001058)
T3CD0 000:208.960   CPU_WriteMem(4 bytes @ 0xE0001000)
T3CD0 000:209.450   CPU_ReadMem(4 bytes @ 0xE000ED88)
T3CD0 000:209.809   CPU_WriteMem(4 bytes @ 0xE000ED88)
T3CD0 000:210.184   CPU_ReadMem(4 bytes @ 0xE000ED88)
T3CD0 000:210.465   CPU_WriteMem(4 bytes @ 0xE000ED88)
T3CD0 000:210.811   CPU_ReadMem(4 bytes @ 0xE000EFB8)
T3CD0 000:211.188   Security extension: implemented
T3CD0 000:211.197   Secure debug: enabled
T3CD0 000:211.204   CoreSight components:
T3CD0 000:211.212   ROMTbl[0] @ E00FE000
T3CD0 000:211.220   CPU_ReadMem(64 bytes @ 0xE00FE000)
T3CD0 000:212.085   CPU_ReadMem(32 bytes @ 0xE0044FE0)
T3CD0 000:212.647   CPU_ReadMem(4 bytes @ 0xE0044FBC)
T3CD0 000:213.032   CPU_ReadMem(4 bytes @ 0xE0044FCC)
T3CD0 000:213.417   [0][0]: E0044000 CID B105900D PID 005BB906 DEVARCH 00000000 DEVTYPE 14 CTI (?)
T3CD0 000:213.426   CPU_ReadMem(32 bytes @ 0xE0047FE0)
T3CD0 000:214.048   CPU_ReadMem(4 bytes @ 0xE0047FBC)
T3CD0 000:214.405   CPU_ReadMem(4 bytes @ 0xE0047FCC)
T3CD0 000:214.788   [0][1]: E0047000 CID B105900D PID 003BB908 DEVARCH 00000000 DEVTYPE 12 CSTF
T3CD0 000:214.809   CPU_ReadMem(32 bytes @ 0xE0048FE0)
T3CD0 000:215.346   CPU_ReadMem(4 bytes @ 0xE0048FBC)
T3CD0 000:215.814   CPU_ReadMem(4 bytes @ 0xE0048FCC)
T3CD0 000:216.192   [0][2]: E0048000 CID B105900D PID 001BB961 DEVARCH 00000000 DEVTYPE 21 TMC
T3CD0 000:216.201   CPU_ReadMem(32 bytes @ 0xE0049FE0)
T3CD0 000:216.869   [0][3]: E0049000 CID B105F00D PID 001BB101 TSG
T3CD0 000:216.879   CPU_ReadMem(32 bytes @ 0xE0040FE0)
T3CD0 000:217.535   CPU_ReadMem(4 bytes @ 0xE0040FBC)
T3CD0 000:217.910   CPU_ReadMem(4 bytes @ 0xE0040FCC)
T3CD0 000:218.318   [0][4]: E0040000 CID B105900D PID 000BBD21 DEVARCH 00000000 DEVTYPE 11 TPIU
T3CD0 000:218.332   CPU_ReadMem(32 bytes @ 0xE00FFFE0)
T3CD0 000:218.930   [0][5]: E00FF000 CID B105100D PID 000BB4C9 ROM Table
T3CD0 000:219.139   ROMTbl[1] @ E00FF000
T3CD0 000:219.148   CPU_ReadMem(64 bytes @ 0xE00FF000)
T3CD0 000:219.942   CPU_ReadMem(32 bytes @ 0xE000EFE0)
T3CD0 000:220.575   CPU_ReadMem(4 bytes @ 0xE000EFBC)
T3CD0 000:220.911   CPU_ReadMem(4 bytes @ 0xE000EFCC)
T3CD0 000:221.327   [1][0]: E000E000 CID B105900D PID 000BBD21 DEVARCH 47702A04 DEVTYPE 00 Cortex-M33
T3CD0 000:221.344   CPU_ReadMem(32 bytes @ 0xE0001FE0)
T3CD0 000:222.016   CPU_ReadMem(4 bytes @ 0xE0001FBC)
T3CD0 000:222.447   CPU_ReadMem(4 bytes @ 0xE0001FCC)
T3CD0 000:223.132   [1][1]: E0001000 CID B105900D PID 000BBD21 DEVARCH 47701A02 DEVTYPE 00 DWT
T3CD0 000:223.177   CPU_ReadMem(32 bytes @ 0xE0002FE0)
T3CD0 000:223.727   CPU_ReadMem(4 bytes @ 0xE0002FBC)
T3CD0 000:224.074   CPU_ReadMem(4 bytes @ 0xE0002FCC)
T3CD0 000:224.468   [1][2]: E0002000 CID B105900D PID 000BBD21 DEVARCH 47701A03 DEVTYPE 00 FPB
T3CD0 000:224.491   CPU_ReadMem(32 bytes @ 0xE0000FE0)
T3CD0 000:225.106   CPU_ReadMem(4 bytes @ 0xE0000FBC)
T3CD0 000:225.490   CPU_ReadMem(4 bytes @ 0xE0000FCC)
T3CD0 000:225.866   [1][3]: E0000000 CID B105900D PID 000BBD21 DEVARCH 47701A01 DEVTYPE 43 ITM
T3CD0 000:225.877   CPU_ReadMem(32 bytes @ 0xE0041FE0)
T3CD0 000:226.485   CPU_ReadMem(4 bytes @ 0xE0041FBC)
T3CD0 000:226.942   CPU_ReadMem(4 bytes @ 0xE0041FCC)
T3CD0 000:227.287   [1][5]: E0041000 CID B105900D PID 002BBD21 DEVARCH 47724A13 DEVTYPE 13 ETM
T3CD0 000:227.299   CPU_ReadMem(32 bytes @ 0xE0042FE0)
T3CD0 000:227.894   CPU_ReadMem(4 bytes @ 0xE0042FBC)
T3CD0 000:228.266   CPU_ReadMem(4 bytes @ 0xE0042FCC)
T3CD0 000:228.608   [1][6]: E0042000 CID B105900D PID 000BBD21 DEVARCH 47701A14 DEVTYPE 14 CSS600-CTI
T3CD0 000:228.867   CPU_ReadMem(4 bytes @ 0xE000EDF0)
T3CD0 000:229.245   Data:  01 00 10 01
T3CD0 000:229.254   Debug reg: DHCSR
T3CD0 000:229.263 - 82.486ms returns 0
T3CD0 000:229.414 JLINK_ReadMem(0x400E002C, 0x4 Bytes, ...)
T3CD0 000:229.425   CPU_ReadMem(4 bytes @ 0x400E002C)
T3CD0 000:229.820   Data:  01 00 00 00
T3CD0 000:229.829 - 0.415ms returns 0
T3CD0 000:229.852 JLINK_ReadMem(0xE000EDF0, 0x4 Bytes, ...)
T3CD0 000:229.860   CPU_ReadMem(4 bytes @ 0xE000EDF0)
T3CD0 000:230.269   Data:  01 00 10 01
T3CD0 000:230.278   Debug reg: DHCSR
T3CD0 000:230.286 - 0.433ms returns 0
T3CD0 000:230.846 JLINK_ReadMem(0xE000EDF0, 0x4 Bytes, ...)
T3CD0 000:230.857   CPU_ReadMem(4 bytes @ 0xE000EDF0)
T3CD0 000:231.231   Data:  01 00 10 01
T3CD0 000:231.240   Debug reg: DHCSR
T3CD0 000:231.248 - 0.402ms returns 0
T3CD0 000:231.256 JLINK_ReadMem(0x400E001C, 0x4 Bytes, ...)
T3CD0 000:231.263   CPU_ReadMem(4 bytes @ 0x400E001C)
T3CD0 000:231.612   Data:  00 FC FF 00
T3CD0 000:231.621 - 0.365ms returns 0
T3CD0 000:231.631 JLINK_ReadMem(0xE000EDF0, 0x4 Bytes, ...)
T3CD0 000:231.639   CPU_ReadMem(4 bytes @ 0xE000EDF0)
T3CD0 000:232.004   Data:  01 00 10 01
T3CD0 000:232.013   Debug reg: DHCSR
T3CD0 000:232.021 - 0.389ms returns 0
T3CD0 000:232.029 JLINK_ReadMem(0x400E0018, 0x4 Bytes, ...)
T3CD0 000:232.035   CPU_ReadMem(4 bytes @ 0x400E0018)
T3CD0 000:232.412   Data:  00 80 FF 00
T3CD0 000:232.421 - 0.392ms returns 0
T3CD0 000:232.431 JLINK_ReadMem(0xE000EDF0, 0x4 Bytes, ...)
T3CD0 000:232.440   CPU_ReadMem(4 bytes @ 0xE000EDF0)
T3CD0 000:232.853   Data:  01 00 10 01
T3CD0 000:232.869   Debug reg: DHCSR
T3CD0 000:232.876 - 0.445ms returns 0
T3CD0 000:232.884 JLINK_ReadMem(0x400E0020, 0x4 Bytes, ...)
T3CD0 000:232.891   CPU_ReadMem(4 bytes @ 0x400E0020)
T3CD0 000:233.317   Data:  00 FC 00 00
T3CD0 000:233.326 - 0.441ms returns 0
T3CD0 000:233.336 JLINK_ReadMem(0xE000EDF0, 0x4 Bytes, ...)
T3CD0 000:233.343   CPU_ReadMem(4 bytes @ 0xE000EDF0)
T3CD0 000:233.816   Data:  01 00 10 01
T3CD0 000:233.831   Debug reg: DHCSR
T3CD0 000:233.839 - 0.503ms returns 0
T3CD0 000:233.846 JLINK_ReadMem(0x400E0028, 0x4 Bytes, ...)
T3CD0 000:233.853   CPU_ReadMem(4 bytes @ 0x400E0028)
T3CD0 000:234.276   Data:  00 FC 1F 00
T3CD0 000:234.285 - 0.438ms returns 0
T3CD0 000:234.295 JLINK_ReadMem(0xE000EDF0, 0x4 Bytes, ...)
T3CD0 000:234.302   CPU_ReadMem(4 bytes @ 0xE000EDF0)
T3CD0 000:234.725   Data:  01 00 10 01
T3CD0 000:234.747   Debug reg: DHCSR
T3CD0 000:234.757 - 0.461ms returns 0
T3CD0 000:234.770 JLINK_ReadMem(0x400E0024, 0x4 Bytes, ...)
T3CD0 000:234.814   CPU_ReadMem(4 bytes @ 0x400E0024)
T3CD0 000:235.364   Data:  00 E0 1F 00
T3CD0 000:235.381 - 0.611ms returns 0
T3CD0 000:235.402 JLINK_ReadMem(0xE000EDF0, 0x4 Bytes, ...)
T3CD0 000:235.412   CPU_ReadMem(4 bytes @ 0xE000EDF0)
T3CD0 000:235.784   Data:  01 00 10 01
T3CD0 000:235.799   Debug reg: DHCSR
T3CD0 000:235.807 - 0.405ms returns 0
T3CD0 000:235.817 JLINK_ReadMem(0x400E002C, 0x4 Bytes, ...)
T3CD0 000:235.826   CPU_ReadMem(4 bytes @ 0x400E002C)
T3CD0 000:236.271   Data:  01 00 00 00
T3CD0 000:236.296 - 0.478ms returns 0
T3CD0 000:238.049 JLINK_Close()
T3CD0 000:258.103 - 20.054ms
T3CD0 000:258.129   
T3CD0 000:258.135   Closed
>>>>>>> d33d55c (update code)
